RTDS Simulation, 0
56,34A,22D
1,TES1P,,,,0.00737751,-9.15902,0,0,65535
2,TES2P,,,,0.00737751,-9.15911,0,0,65535
3,ES_P,,,,0.140665,-3483.99,0,0,65535
4,TES1Q,,,,0.00508425,-84.5534,0,0,65535
5,TES2Q,,,,0.00508425,-84.5519,0,0,65535
6,ES_Q,,,,0.162198,-272.958,0,0,65535
7,LINE1P,,,MW,0.0050232,0.0,0,0,65535
8,LINE2P,,,MW,0.00715219,-30.6185,0,0,65535
9,LINE1Q,,,MW,0.0289454,-142.215,0,0,65535
10,LINE2Q,,,MW,0.0219368,-1307.62,0,0,65535
11,LINE1IA,,,kA,4.42736E-4,-13.2938,0,0,65535
12,LINE1IB,,,kA,4.53879E-4,-24.7829,0,0,65535
13,LINE1IC,,,kA,4.45928E-4,-6.34955,0,0,65535
14,LINE2IA,,,kA,2.67574E-4,-10.0122,0,0,65535
15,LINE2IB,,,kA,3.29404E-4,-6.99829,0,0,65535
16,LINE2IC,,,kA,3.13962E-4,-13.227,0,0,65535
17,S1) TES1_UA,,,kV,5.31839E-4,-17.427,0,0,65535
18,S1) TES1_UB,,,kV,5.37299E-4,-17.6062,0,0,65535
19,S1) TES1_UC,,,kV,5.37512E-4,-17.6127,0,0,65535
20,S1) TES2_UA,,,kV,5.31839E-4,-17.427,0,0,65535
21,S1) TES2_UB,,,kV,5.37299E-4,-17.6062,0,0,65535
22,S1) TES2_UC,,,kV,5.37512E-4,-17.6127,0,0,65535
23,S1) TES_UA,,,kV,0.00852,-279.18,0,0,65535
24,S1) TES_UB,,,kV,0.0093568,-331.711,0,0,65535
25,S1) TES_UC,,,kV,0.00910607,-280.711,0,0,65535
26,S1) SUB_UA,,,kV,0.00815847,-267.333,0,0,65535
27,S1) SUB_UB,,,kV,0.00819453,-268.514,0,0,65535
28,S1) SUB_UC,,,kV,0.00822154,-269.399,0,0,65535
29,TES_UA_rms,,,,0.00303822,0.0,0,0,65535
30,TES_UB_rms,,,,0.00303821,0.0,0,0,65535
31,TES_UC_rms,,,,0.00303821,0.0,0,0,65535
32,TES_U_rms,,,,0.00570113,0.0,0,0,65535
33,PSUM,,,,0.0147561,-18.3882,0,0,65535
34,TES_U1,,,,1.59908E-5,0.0,0,0,65535
1,Oscil,0
2,Stast_FTKZU,0
3,Stast_FTKZP,0
4,FTKZU_1st,0
5,FTKZU_2st,0
6,FTKZU_3st,0
7,FTKZU_4st,0
8,FTKZP_1st,0
9,FTKZP_2st,0
10,FTKZP_3st,0
11,FTKZP_4st,0
12,ARKZU_1st,0
13,ARKZU_2st,0
14,ARKZU_3st,0
15,ARKZU_4st,0
16,ARKZP_1st,0
17,ARKZP_2st,0
18,ARKZP_3st,0
19,ARKZP_4st,0
20,KPR_1st,0
21,KPR_2st,0
22,group_set,0
50.0
1
1000.0,5000
03/24/23,15:55:48.601000
03/24/23,15:55:49.101000
ASCII
1,0,41703,41703,23389,17752,17752,1617,33801,35876,3997,58640,29261,54488,15115,35671,21140,43728,19301,15778,63074,19301,15778,63074,5095,35920,56236,2884,35517,59679,62779,62779,62779,57947,41705,62780,0,0,0,0,0,0,0,0,0,0,0,0,0,0,0,0,0,0,0,1,0,0
2,1000,41705,41705,23389,17751,17750,1617,33800,35875,3997,58640,29477,54206,15187,36114,20620,43895,28487,8822,60938,28487,8822,60938,11202,26990,59697,8693,25257,64142,62779,62779,62779,57947,41707,62780,0,0,0,0,0,0,0,0,0,0,0,0,0,0,0,0,0,0,0,1,0,0
3,2000,41708,41708,23390,17750,17750,1617,33798,35873,3997,58641,29746,53964,15166,36685,20161,43890,38092,4210,56044,38092,4210,56044,19421,18888,60333,16858,15733,65533,62779,62779,62779,57947,41710,62780,0,0,0,0,0,0,0,0,0,0,0,0,0,0,0,0,0,0,0,1,0,0
4,3000,41710,41710,23390,17751,17751,1618,33797,35872,3997,58640,30044,53784,15054,37328,19809,43712,47176,2393,48872,47176,2393,48872,28946,12407,58080,26580,7875,63717,62779,62779,62779,57948,41712,62780,0,0,0,0,0,0,0,0,0,0,0,0,0,0,0,0,0,0,0,1,0,0
5,4000,41713,41713,23389,17753,17753,1618,33795,35871,3997,58640,30339,53684,14862,37980,19597,43379,54850,3550,40123,54850,3550,40123,38845,8182,53160,36908,2455,58871,62779,62779,62779,57948,41715,62780,0,0,0,0,0,0,0,0,0,0,0,0,0,0,0,0,0,0,0,1,0,0
6,5000,41715,41715,23389,17756,17756,1618,33794,35870,3997,58640,30604,53674,14610,38576,19546,42924,60362,7567,30654,60362,7567,30654,48149,6626,46053,46830,1,51470,62779,62779,62779,57948,41716,62780,0,0,0,0,0,0,0,0,0,0,0,0,0,0,0,0,0,0,0,1,0,0
7,6000,41716,41716,23389,17760,17760,1618,33794,35869,3997,58640,30812,53755,14320,39060,19661,42391,63172,14051,21392,63172,14051,21392,55948,7892,37456,55376,755,42238,62779,62779,62779,57948,41718,62780,0,0,0,0,0,0,0,0,0,0,0,0,0,0,0,0,0,0,0,1,0,0
8,7000,41716,41716,23388,17764,17764,1619,33794,35869,3997,58639,30944,53918,14023,39382,19932,41832,63007,22367,13243,63007,22367,13243,61477,11855,28209,61709,4642,32079,62779,62779,62779,57948,41718,62780,0,0,0,0,0,0,0,0,0,0,0,0,0,0,0,0,0,0,0,1,0,0
9,8000,41716,41716,23388,17768,17768,1619,33795,35870,3996,58639,30985,54149,13747,39513,20331,41302,59881,31701,7005,59881,31701,7005,64196,18129,19219,65209,11283,21988,62779,62779,62779,57948,41718,62780,0,0,0,0,0,0,0,0,0,0,0,0,0,0,0,0,0,0,0,1,0,0
10,9000,41714,41714,23387,17771,17771,1619,33796,35871,3996,58639,30933,54425,13519,39438,20820,40853,54101,41139,3289,54101,41139,3289,63839,26098,11365,65533,20026,12952,62779,62779,62779,57948,41716,62780,0,0,0,0,0,0,0,0,0,0,0,0,0,0,0,0,0,0,0,1,0,0
11,10000,41712,41712,23387,17774,17774,1619,33797,35872,3996,58638,30792,54717,13361,39166,21351,40529,46232,49758,2459,46232,49758,2459,60440,34982,5416,62650,30017,5855,62779,62779,62779,57948,41714,62780,0,0,0,0,0,0,0,0,0,0,0,0,0,0,0,0,0,0,0,1,0,0
12,11000,41710,41710,23387,17776,17776,1618,33798,35874,3996,58638,30576,54999,13289,38722,21871,40361,37046,56714,4596,37046,56714,4596,54332,43913,1955,56841,40277,1392,62779,62779,62779,57948,41712,62780,0,0,0,0,0,0,0,0,0,0,0,0,0,0,0,0,0,0,0,1,0,0
13,12000,41707,41707,23387,17776,17776,1618,33800,35875,3996,58638,30306,55241,13310,38151,22330,40366,27441,61325,9490,27441,61325,9490,46113,52015,1320,48676,49801,1,62779,62779,62779,57947,41709,62780,0,0,0,0,0,0,0,0,0,0,0,0,0,0,0,0,0,0,0,1,0,0
14,13000,41705,41705,23387,17775,17775,1618,33802,35877,3996,58638,30009,55421,13422,37508,22682,40544,18357,63141,16663,18357,63141,16663,36588,58495,3573,38954,57659,1817,62779,62779,62779,57947,41707,62780,0,0,0,0,0,0,0,0,0,0,0,0,0,0,0,0,0,0,0,1,0,0
15,14000,41702,41702,23387,17773,17773,1617,33803,35878,3996,58638,29713,55521,13614,36856,22894,40877,10684,61984,25411,10684,61984,25411,26689,62720,8493,28626,63079,6663,62779,62779,62779,57947,41704,62780,0,0,0,0,0,0,0,0,0,0,0,0,0,0,0,0,0,0,0,1,0,0
16,15000,41701,41701,23387,17770,17770,1617,33804,35879,3996,58639,29448,55531,13867,36260,22945,41332,5173,57967,34880,5173,57967,34880,17385,64276,15600,18704,65533,14064,62779,62779,62779,57947,41702,62780,0,0,0,0,0,0,0,0,0,0,0,0,0,0,0,0,0,0,0,1,0,0
17,16000,41699,41699,23387,17767,17767,1617,33804,35879,3996,58639,29240,55450,14156,35777,22829,41865,2362,51484,44142,2362,51484,44142,9587,63010,24197,10158,64779,23296,62779,62779,62779,57947,41701,62780,0,0,0,0,0,0,0,0,0,0,0,0,0,0,0,0,0,0,0,1,0,0
18,17000,41699,41699,23388,17763,17763,1617,33804,35879,3997,58639,29109,55286,14453,35454,22559,42424,2528,43168,52290,2528,43168,52290,4058,59046,33443,3825,60892,33455,62779,62779,62779,57947,41701,62780,0,0,0,0,0,0,0,0,0,0,0,0,0,0,0,0,0,0,0,1,0,0
19,18000,41700,41700,23388,17759,17759,1617,33804,35879,3997,58640,29067,55055,14729,35324,22159,42954,5654,33835,58527,5654,33835,58527,1339,52773,42433,325,54251,43546,62779,62779,62779,57947,41701,62780,0,0,0,0,0,0,0,0,0,0,0,0,0,0,0,0,0,0,0,1,0,0
20,19000,41701,41701,23389,17755,17755,1617,33803,35878,3997,58640,29119,54780,14957,35399,21671,43403,11433,24397,62243,11433,24397,62243,1696,44804,50287,1,45508,52583,62779,62779,62779,57947,41703,62780,0,0,0,0,0,0,0,0,0,0,0,0,0,0,0,0,0,0,0,1,0,0
21,20000,41703,41703,23389,17752,17752,1617,33801,35876,3997,58640,29261,54488,15115,35671,21140,43728,19301,15778,63074,19301,15778,63074,5095,35920,56236,2884,35517,59679,62779,62779,62779,57947,41705,62780,0,0,0,0,0,0,0,0,0,0,0,0,0,0,0,0,0,0,0,1,0,0
22,21000,41705,41705,23389,17751,17751,1617,33800,35875,3997,58641,29477,54206,15187,36114,20620,43895,28487,8822,60938,28487,8822,60938,11202,26990,59697,8693,25257,64142,62779,62779,62779,57947,41707,62780,0,0,0,0,0,0,0,0,0,0,0,0,0,0,0,0,0,0,0,1,0,0
23,22000,41708,41708,23390,17750,17750,1617,33798,35873,3997,58641,29746,53964,15166,36685,20161,43890,38092,4210,56044,38092,4210,56044,19421,18888,60333,16858,15733,65533,62779,62779,62779,57947,41710,62780,0,0,0,0,0,0,0,0,0,0,0,0,0,0,0,0,0,0,0,1,0,0
24,23000,41710,41710,23390,17751,17751,1618,33797,35872,3997,58640,30044,53784,15054,37328,19809,43712,47176,2393,48872,47176,2393,48872,28946,12407,58080,26580,7875,63717,62779,62779,62779,57948,41712,62780,0,0,0,0,0,0,0,0,0,0,0,0,0,0,0,0,0,0,0,1,0,0
25,24000,41713,41713,23389,17753,17753,1618,33795,35871,3997,58640,30339,53684,14862,37980,19597,43379,54850,3550,40123,54850,3550,40123,38845,8182,53160,36908,2455,58871,62779,62779,62779,57948,41715,62780,0,0,0,0,0,0,0,0,0,0,0,0,0,0,0,0,0,0,0,1,0,0
26,25000,41715,41715,23389,17756,17756,1618,33794,35870,3997,58640,30604,53674,14610,38576,19546,42924,60362,7567,30654,60362,7567,30654,48149,6626,46053,46830,1,51470,62779,62779,62779,57948,41716,62780,0,0,0,0,0,0,0,0,0,0,0,0,0,0,0,0,0,0,0,1,0,0
27,26000,41716,41716,23389,17760,17760,1618,33794,35869,3997,58640,30812,53755,14320,39060,19661,42391,63172,14051,21392,63172,14051,21392,55948,7892,37456,55376,755,42238,62779,62779,62779,57948,41718,62780,0,0,0,0,0,0,0,0,0,0,0,0,0,0,0,0,0,0,0,1,0,0
28,27000,41716,41716,23388,17764,17764,1619,33794,35869,3997,58639,30944,53918,14023,39382,19932,41832,63007,22367,13243,63007,22367,13243,61477,11855,28209,61709,4642,32079,62779,62779,62779,57948,41718,62780,0,0,0,0,0,0,0,0,0,0,0,0,0,0,0,0,0,0,0,1,0,0
29,28000,41716,41716,23388,17768,17768,1619,33795,35870,3996,58639,30985,54149,13747,39513,20331,41302,59881,31701,7005,59881,31701,7005,64196,18129,19219,65209,11283,21988,62779,62779,62779,57948,41718,62780,0,0,0,0,0,0,0,0,0,0,0,0,0,0,0,0,0,0,0,1,0,0
30,29000,41714,41714,23387,17772,17772,1619,33796,35871,3996,58639,30933,54425,13519,39438,20820,40853,54101,41139,3289,54101,41139,3289,63839,26098,11365,65533,20026,12952,62779,62779,62779,57948,41716,62780,0,0,0,0,0,0,0,0,0,0,0,0,0,0,0,0,0,0,0,1,0,0
31,30000,41712,41712,23387,17774,17774,1619,33797,35872,3996,58638,30792,54717,13361,39166,21351,40529,46232,49758,2459,46232,49758,2459,60440,34982,5416,62650,30017,5855,62779,62779,62779,57948,41714,62780,0,0,0,0,0,0,0,0,0,0,0,0,0,0,0,0,0,0,0,1,0,0
32,31000,41710,41710,23387,17776,17776,1618,33798,35874,3996,58638,30576,54999,13289,38722,21871,40361,37046,56714,4596,37046,56714,4596,54332,43913,1955,56841,40277,1392,62779,62779,62779,57948,41712,62780,0,0,0,0,0,0,0,0,0,0,0,0,0,0,0,0,0,0,0,1,0,0
33,32000,41707,41707,23387,17776,17776,1618,33800,35875,3996,58638,30306,55241,13310,38151,22330,40366,27441,61325,9490,27441,61325,9490,46113,52015,1320,48676,49801,1,62779,62779,62779,57947,41709,62780,0,0,0,0,0,0,0,0,0,0,0,0,0,0,0,0,0,0,0,1,0,0
34,33000,41705,41705,23387,17776,17776,1618,33802,35877,3996,58638,30009,55421,13422,37508,22682,40544,18357,63141,16663,18357,63141,16663,36588,58495,3573,38954,57659,1817,62779,62779,62779,57947,41707,62780,0,0,0,0,0,0,0,0,0,0,0,0,0,0,0,0,0,0,0,1,0,0
35,34000,41702,41702,23387,17773,17773,1617,33803,35878,3996,58638,29713,55521,13614,36856,22894,40877,10684,61984,25411,10684,61984,25411,26689,62720,8493,28626,63079,6663,62779,62779,62779,57947,41704,62780,0,0,0,0,0,0,0,0,0,0,0,0,0,0,0,0,0,0,0,1,0,0
36,35000,41701,41701,23387,17770,17770,1617,33804,35879,3996,58639,29448,55531,13867,36260,22945,41332,5173,57967,34880,5173,57967,34880,17385,64276,15600,18704,65533,14064,62779,62779,62779,57947,41702,62780,0,0,0,0,0,0,0,0,0,0,0,0,0,0,0,0,0,0,0,1,0,0
37,36000,41699,41699,23387,17767,17767,1617,33804,35879,3996,58639,29240,55450,14156,35777,22829,41865,2362,51484,44142,2362,51484,44142,9587,63010,24197,10158,64779,23296,62779,62779,62779,57947,41701,62780,0,0,0,0,0,0,0,0,0,0,0,0,0,0,0,0,0,0,0,1,0,0
38,37000,41699,41699,23388,17763,17763,1617,33804,35879,3997,58639,29109,55286,14453,35454,22559,42424,2528,43168,52290,2528,43168,52290,4058,59046,33443,3825,60892,33455,62779,62779,62779,57947,41701,62780,0,0,0,0,0,0,0,0,0,0,0,0,0,0,0,0,0,0,0,1,0,0
39,38000,41700,41700,23388,17759,17759,1617,33804,35879,3997,58640,29067,55055,14729,35324,22159,42954,5654,33835,58527,5654,33835,58527,1339,52773,42433,325,54251,43546,62779,62779,62779,57947,41701,62780,0,0,0,0,0,0,0,0,0,0,0,0,0,0,0,0,0,0,0,1,0,0
40,39000,41701,41701,23389,17755,17755,1617,33803,35878,3997,58640,29119,54780,14957,35399,21671,43403,11433,24397,62243,11433,24397,62243,1696,44804,50287,1,45508,52583,62779,62779,62779,57947,41703,62780,0,0,0,0,0,0,0,0,0,0,0,0,0,0,0,0,0,0,0,1,0,0
41,40000,41703,41703,23389,17752,17752,1617,33801,35876,3997,58640,29261,54488,15115,35671,21140,43728,19301,15778,63074,19301,15778,63074,5095,35920,56236,2884,35517,59679,62779,62779,62779,57947,41705,62780,0,0,0,0,0,0,0,0,0,0,0,0,0,0,0,0,0,0,0,1,0,0
42,41000,41705,41705,23389,17751,17751,1617,33800,35875,3997,58641,29477,54206,15187,36114,20620,43895,28487,8822,60938,28487,8822,60938,11202,26990,59697,8693,25257,64142,62779,62779,62779,57947,41707,62780,0,0,0,0,0,0,0,0,0,0,0,0,0,0,0,0,0,0,0,1,0,0
43,42000,41708,41708,23390,17750,17750,1617,33798,35873,3997,58641,29746,53964,15166,36685,20161,43890,38092,4210,56044,38092,4210,56044,19421,18888,60333,16858,15733,65533,62779,62779,62779,57947,41710,62780,0,0,0,0,0,0,0,0,0,0,0,0,0,0,0,0,0,0,0,1,0,0
44,43000,41710,41710,23390,17751,17751,1618,33797,35872,3997,58640,30044,53784,15054,37328,19809,43712,47176,2393,48872,47176,2393,48872,28946,12407,58080,26580,7875,63717,62779,62779,62779,57948,41712,62780,0,0,0,0,0,0,0,0,0,0,0,0,0,0,0,0,0,0,0,1,0,0
45,44000,41713,41713,23389,17753,17753,1618,33795,35871,3997,58640,30339,53684,14862,37980,19597,43379,54850,3550,40123,54850,3550,40123,38845,8182,53160,36908,2455,58871,62779,62779,62779,57948,41715,62780,0,0,0,0,0,0,0,0,0,0,0,0,0,0,0,0,0,0,0,1,0,0
46,45000,41715,41715,23389,17756,17756,1618,33794,35870,3997,58640,30604,53674,14610,38576,19546,42924,60362,7567,30654,60362,7567,30654,48149,6626,46053,46830,1,51470,62779,62779,62779,57948,41716,62780,0,0,0,0,0,0,0,0,0,0,0,0,0,0,0,0,0,0,0,1,0,0
47,46000,41716,41716,23389,17760,17760,1618,33794,35869,3997,58640,30812,53755,14320,39060,19661,42391,63172,14051,21392,63173,14051,21392,55948,7892,37456,55376,755,42238,62779,62779,62779,57948,41718,62780,0,0,0,0,0,0,0,0,0,0,0,0,0,0,0,0,0,0,0,1,0,0
48,47000,41716,41716,23388,17764,17764,1619,33794,35869,3997,58639,30944,53918,14023,39382,19932,41832,63007,22367,13243,63007,22367,13243,61477,11855,28209,61709,4642,32079,62779,62779,62779,57948,41718,62780,0,0,0,0,0,0,0,0,0,0,0,0,0,0,0,0,0,0,0,1,0,0
49,48000,41716,41716,23388,17768,17768,1619,33795,35870,3996,58639,30985,54149,13747,39513,20331,41302,59881,31701,7005,59881,31701,7005,64196,18129,19219,65209,11283,21988,62779,62779,62779,57948,41718,62780,0,0,0,0,0,0,0,0,0,0,0,0,0,0,0,0,0,0,0,1,0,0
50,49000,41714,41714,23387,17772,17772,1619,33796,35871,3996,58639,30933,54425,13519,39438,20820,40853,54101,41139,3289,54101,41139,3289,63839,26098,11365,65533,20026,12952,62779,62779,62779,57948,41716,62780,0,0,0,0,0,0,0,0,0,0,0,0,0,0,0,0,0,0,0,1,0,0
51,50000,41712,41712,23387,17774,17774,1619,33797,35872,3996,58638,30792,54717,13361,39166,21351,40529,46232,49758,2459,46232,49758,2459,60440,34982,5416,62650,30017,5855,62779,62779,62779,57948,41714,62780,0,0,0,0,0,0,0,0,0,0,0,0,0,0,0,0,0,0,0,1,0,0
52,51000,41710,41710,23387,17776,17776,1618,33798,35874,3996,58638,30576,54998,13289,38722,21871,40361,37046,56714,4596,37046,56714,4596,54332,43913,1955,56841,40277,1392,62779,62779,62779,57948,41712,62780,0,0,0,0,0,0,0,0,0,0,0,0,0,0,0,0,0,0,0,1,0,0
53,52000,41707,41707,23387,17776,17776,1618,33800,35875,3996,58638,30306,55241,13310,38151,22330,40366,27441,61325,9490,27441,61325,9490,46113,52015,1320,48676,49801,1,62779,62779,62779,57947,41709,62780,0,0,0,0,0,0,0,0,0,0,0,0,0,0,0,0,0,0,0,1,0,0
54,53000,41705,41705,23387,17776,17776,1618,33802,35877,3996,58638,30009,55421,13422,37508,22682,40544,18357,63141,16663,18357,63141,16663,36588,58495,3573,38954,57659,1817,62779,62779,62779,57947,41707,62780,0,0,0,0,0,0,0,0,0,0,0,0,0,0,0,0,0,0,0,1,0,0
55,54000,41702,41702,23387,17774,17774,1617,33803,35878,3996,58638,29713,55521,13614,36856,22894,40877,10684,61984,25411,10684,61984,25411,26689,62720,8493,28626,63079,6663,62779,62779,62779,57947,41704,62780,0,0,0,0,0,0,0,0,0,0,0,0,0,0,0,0,0,0,0,1,0,0
56,55000,41701,41701,23387,17771,17771,1617,33804,35879,3996,58639,29448,55531,13867,36260,22945,41332,5173,57967,34880,5173,57967,34880,17385,64276,15600,18704,65533,14064,62779,62779,62779,57947,41702,62780,0,0,0,0,0,0,0,0,0,0,0,0,0,0,0,0,0,0,0,1,0,0
57,56000,41699,41699,23387,17767,17767,1617,33804,35879,3996,58639,29240,55450,14156,35777,22829,41865,2362,51484,44142,2362,51484,44142,9587,63010,24197,10158,64779,23296,62779,62779,62779,57947,41701,62780,0,0,0,0,0,0,0,0,0,0,0,0,0,0,0,0,0,0,0,1,0,0
58,57000,41699,41699,23388,17763,17763,1617,33804,35879,3997,58639,29109,55286,14453,35454,22559,42424,2528,43168,52290,2528,43168,52290,4058,59046,33443,3825,60892,33455,62779,62779,62779,57947,41701,62780,0,0,0,0,0,0,0,0,0,0,0,0,0,0,0,0,0,0,0,1,0,0
59,58000,41700,41700,23388,17759,17759,1617,33804,35879,3997,58640,29067,55055,14729,35324,22159,42954,5654,33835,58527,5654,33835,58527,1339,52773,42433,325,54251,43546,62779,62779,62779,57947,41701,62780,0,0,0,0,0,0,0,0,0,0,0,0,0,0,0,0,0,0,0,1,0,0
60,59000,41701,41701,23389,17755,17755,1617,33803,35878,3997,58640,29119,54780,14957,35399,21671,43403,11433,24397,62243,11433,24397,62243,1696,44804,50287,1,45508,52583,62779,62779,62779,57947,41703,62780,0,0,0,0,0,0,0,0,0,0,0,0,0,0,0,0,0,0,0,1,0,0
61,60000,41703,41703,23389,17752,17752,1617,33801,35876,3997,58640,29261,54488,15115,35671,21140,43728,19301,15778,63074,19301,15778,63074,5095,35920,56236,2884,35517,59679,62779,62779,62779,57947,41705,62780,0,0,0,0,0,0,0,0,0,0,0,0,0,0,0,0,0,0,0,1,0,0
62,61000,41705,41705,23389,17751,17751,1617,33800,35875,3997,58641,29477,54206,15187,36114,20620,43895,28487,8822,60938,28487,8822,60938,11202,26990,59697,8693,25257,64142,62779,62779,62779,57947,41707,62780,0,0,0,0,0,0,0,0,0,0,0,0,0,0,0,0,0,0,0,1,0,0
63,62000,41708,41708,23390,17750,17750,1617,33798,35873,3997,58641,29746,53964,15166,36685,20161,43890,38092,4210,56044,38092,4210,56044,19421,18888,60333,16858,15733,65533,62779,62779,62779,57947,41710,62780,0,0,0,0,0,0,0,0,0,0,0,0,0,0,0,0,0,0,0,1,0,0
64,63000,41710,41710,23390,17751,17751,1618,33797,35872,3997,58640,30044,53784,15054,37328,19809,43712,47176,2393,48872,47176,2393,48872,28946,12407,58080,26580,7875,63717,62779,62779,62779,57948,41712,62780,0,0,0,0,0,0,0,0,0,0,0,0,0,0,0,0,0,0,0,1,0,0
65,64000,41713,41713,23389,17753,17753,1618,33795,35871,3997,58640,30339,53684,14862,37980,19597,43379,54850,3550,40123,54850,3550,40123,38845,8182,53160,36908,2455,58871,62779,62779,62779,57948,41715,62780,0,0,0,0,0,0,0,0,0,0,0,0,0,0,0,0,0,0,0,1,0,0
66,65000,41715,41715,23389,17756,17756,1618,33794,35870,3997,58640,30604,53674,14610,38576,19546,42924,60362,7567,30654,60362,7567,30654,48149,6626,46053,46830,1,51470,62779,62779,62779,57948,41716,62780,0,0,0,0,0,0,0,0,0,0,0,0,0,0,0,0,0,0,0,1,0,0
67,66000,41716,41716,23389,17760,17760,1618,33794,35869,3997,58640,30812,53755,14320,39060,19661,42391,63172,14051,21392,63173,14051,21392,55948,7892,37456,55376,755,42238,62779,62779,62779,57948,41718,62780,0,0,0,0,0,0,0,0,0,0,0,0,0,0,0,0,0,0,0,1,0,0
68,67000,41716,41716,23388,17764,17764,1619,33794,35869,3997,58639,30944,53918,14023,39382,19932,41832,63007,22367,13243,63007,22367,13243,61477,11855,28209,61709,4642,32079,62779,62779,62779,57948,41718,62780,0,0,0,0,0,0,0,0,0,0,0,0,0,0,0,0,0,0,0,1,0,0
69,68000,41716,41716,23388,17768,17768,1619,33794,35870,3996,58639,30985,54149,13747,39513,20331,41302,59881,31701,7005,59881,31701,7005,64196,18129,19219,65209,11283,21988,62779,62779,62779,57948,41718,62780,0,0,0,0,0,0,0,0,0,0,0,0,0,0,0,0,0,0,0,1,0,0
70,69000,41714,41714,23387,17772,17772,1619,33796,35871,3996,58639,30933,54425,13519,39438,20820,40853,54101,41139,3289,54101,41139,3289,63839,26098,11365,65533,20026,12952,62779,62779,62779,57948,41716,62780,0,0,0,0,0,0,0,0,0,0,0,0,0,0,0,0,0,0,0,1,0,0
71,70000,41712,41712,23387,17774,17774,1619,33797,35872,3996,58638,30792,54717,13361,39166,21351,40529,46232,49758,2459,46232,49758,2459,60440,34982,5416,62650,30017,5855,62779,62779,62779,57948,41714,62780,0,0,0,0,0,0,0,0,0,0,0,0,0,0,0,0,0,0,0,1,0,0
